Freq.	V(vo)
1.00000000000000e+000	(-5.20517349493331e+001dB,1.00064983077566e+002°)
1.00230523807790e+000	(-5.20310973908557e+001dB,1.00041260549392e+002°)
1.00461579027840e+000	(-5.20104626717176e+001dB,1.00017586704344e+002°)
1.00693166885180e+000	(-5.19898307797139e+001dB,9.99939614470750e+001°)
1.00925288607668e+000	(-5.19692017026888e+001dB,9.99703846822968e+001°)
1.01157945425990e+000	(-5.19485754285344e+001dB,9.99468563147854e+001°)
1.01391138573668e+000	(-5.19279519451921e+001dB,9.99233762493823e+001°)
1.01624869287070e+000	(-5.19073312406517e+001dB,9.98999443909938e+001°)
1.01859138805412e+000	(-5.18867133029509e+001dB,9.98765606445914e+001°)
1.02093948370768e+000	(-5.18660981201756e+001dB,9.98532249152137e+001°)
1.02329299228075e+000	(-5.18454856804602e+001dB,9.98299371079664e+001°)
1.02565192625141e+000	(-5.18248759719863e+001dB,9.98066971280229e+001°)
1.02801629812647e+000	(-5.18042689829828e+001dB,9.97835048806239e+001°)
1.03038612044162e+000	(-5.17836647017272e+001dB,9.97603602710812e+001°)
1.03276140576140e+000	(-5.17630631165436e+001dB,9.97372632047751e+001°)
1.03514216667934e+000	(-5.17424642158029e+001dB,9.97142135871561e+001°)
1.03752841581801e+000	(-5.17218679879239e+001dB,9.96912113237462e+001°)
1.03992016582906e+000	(-5.17012744213714e+001dB,9.96682563201386e+001°)
1.04231742939330e+000	(-5.16806835046572e+001dB,9.96453484819986e+001°)
1.04472021922080e+000	(-5.16600952263398e+001dB,9.96224877150648e+001°)
1.04712854805090e+000	(-5.16395095750239e+001dB,9.95996739251488e+001°)
1.04954242865232e+000	(-5.16189265393601e+001dB,9.95769070181362e+001°)
1.05196187382322e+000	(-5.15983461080454e+001dB,9.95541868999871e+001°)
1.05438689639126e+000	(-5.15777682698226e+001dB,9.95315134767370e+001°)
1.05681750921366e+000	(-5.15571930134802e+001dB,9.95088866544969e+001°)
1.05925372517729e+000	(-5.15366203278521e+001dB,9.94863063394541e+001°)
1.06169555719872e+000	(-5.15160502018177e+001dB,9.94637724378728e+001°)
1.06414301822431e+000	(-5.14954826243019e+001dB,9.94412848560949e+001°)
1.06659612123026e+000	(-5.14749175842743e+001dB,9.94188435005397e+001°)
1.06905487922266e+000	(-5.14543550707492e+001dB,9.93964482777049e+001°)
1.07151930523761e+000	(-5.14337950727870e+001dB,9.93740990941689e+001°)
1.07398941234124e+000	(-5.14132375794911e+001dB,9.93517958565877e+001°)
1.07646521362983e+000	(-5.13926825800101e+001dB,9.93295384716980e+001°)
1.07894672222983e+000	(-5.13721300635371e+001dB,9.93073268463178e+001°)
1.08143395129794e+000	(-5.13515800193088e+001dB,9.92851608873453e+001°)
1.08392691402120e+000	(-5.13310324366065e+001dB,9.92630405017614e+001°)
1.08642562361706e+000	(-5.13104873047547e+001dB,9.92409655966283e+001°)
1.08893009333343e+000	(-5.12899446131225e+001dB,9.92189360790919e+001°)
1.09144033644876e+000	(-5.12694043511214e+001dB,9.91969518563800e+001°)
1.09395636627209e+000	(-5.12488665082069e+001dB,9.91750128358048e+001°)
1.09647819614318e+000	(-5.12283310738781e+001dB,9.91531189247631e+001°)
1.09900583943252e+000	(-5.12077980376767e+001dB,9.91312700307359e+001°)
1.10153930954141e+000	(-5.11872673891871e+001dB,9.91094660612892e+001°)
1.10407861990207e+000	(-5.11667391180370e+001dB,9.90877069240746e+001°)
1.10662378397766e+000	(-5.11462132138962e+001dB,9.90659925268299e+001°)
1.10917481526240e+000	(-5.11256896664776e+001dB,9.90443227773797e+001°)
1.11173172728159e+000	(-5.11051684655361e+001dB,9.90226975836356e+001°)
1.11429453359173e+000	(-5.10846496008684e+001dB,9.90011168535960e+001°)
1.11686324778056e+000	(-5.10641330623138e+001dB,9.89795804953476e+001°)
1.11943788346715e+000	(-5.10436188397532e+001dB,9.89580884170656e+001°)
1.12201845430196e+000	(-5.10231069231092e+001dB,9.89366405270138e+001°)
1.12460497396692e+000	(-5.10025973023459e+001dB,9.89152367335450e+001°)
1.12719745617551e+000	(-5.09820899674695e+001dB,9.88938769451025e+001°)
1.12979591467280e+000	(-5.09615849085265e+001dB,9.88725610702186e+001°)
1.13240036323556e+000	(-5.09410821156047e+001dB,9.88512890175161e+001°)
1.13501081567231e+000	(-5.09205815788334e+001dB,9.88300606957094e+001°)
1.13762728582343e+000	(-5.09000832883826e+001dB,9.88088760136042e+001°)
1.14024978756117e+000	(-5.08795872344625e+001dB,9.87877348800969e+001°)
1.14287833478977e+000	(-5.08590934073243e+001dB,9.87666372041771e+001°)
1.14551294144553e+000	(-5.08386017972593e+001dB,9.87455828949260e+001°)
1.14815362149688e+000	(-5.08181123945995e+001dB,9.87245718615186e+001°)
1.15080038894443e+000	(-5.07976251897163e+001dB,9.87036040132221e+001°)
1.15345325782109e+000	(-5.07771401730218e+001dB,9.86826792593985e+001°)
1.15611224219210e+000	(-5.07566573349673e+001dB,9.86617975095027e+001°)
1.15877735615512e+000	(-5.07361766660441e+001dB,9.86409586730848e+001°)
1.16144861384034e+000	(-5.07156981567824e+001dB,9.86201626597888e+001°)
1.16412602941049e+000	(-5.06952217977530e+001dB,9.85994093793549e+001°)
1.16680961706096e+000	(-5.06747475795649e+001dB,9.85786987416180e+001°)
1.16949939101987e+000	(-5.06542754928662e+001dB,9.85580306565088e+001°)
1.17219536554813e+000	(-5.06338055283447e+001dB,9.85374050340549e+001°)
1.17489755493953e+000	(-5.06133376767262e+001dB,9.85168217843794e+001°)
1.17760597352080e+000	(-5.05928719287756e+001dB,9.84962808177030e+001°)
1.18032063565173e+000	(-5.05724082752959e+001dB,9.84757820443429e+001°)
1.18304155572516e+000	(-5.05519467071292e+001dB,9.84553253747149e+001°)
1.18576874816716e+000	(-5.05314872151551e+001dB,9.84349107193315e+001°)
1.18850222743702e+000	(-5.05110297902917e+001dB,9.84145379888041e+001°)
1.19124200802737e+000	(-5.04905744234946e+001dB,9.83942070938418e+001°)
1.19398810446427e+000	(-5.04701211057578e+001dB,9.83739179452536e+001°)
1.19674053130724e+000	(-5.04496698281130e+001dB,9.83536704539472e+001°)
1.19949930314938e+000	(-5.04292205816284e+001dB,9.83334645309285e+001°)
1.20226443461741e+000	(-5.04087733574107e+001dB,9.83133000873048e+001°)
1.20503594037179e+000	(-5.03883281466035e+001dB,9.82931770342828e+001°)
1.20781383510678e+000	(-5.03678849403874e+001dB,9.82730952831693e+001°)
1.21059813355048e+000	(-5.03474437299799e+001dB,9.82530547453716e+001°)
1.21338885046497e+000	(-5.03270045066356e+001dB,9.82330553323983e+001°)
1.21618600064636e+000	(-5.03065672616459e+001dB,9.82130969558590e+001°)
1.21898959892486e+000	(-5.02861319863381e+001dB,9.81931795274644e+001°)
1.22179966016487e+000	(-5.02656986720767e+001dB,9.81733029590273e+001°)
1.22461619926504e+000	(-5.02452673102618e+001dB,9.81534671624623e+001°)
1.22743923115840e+000	(-5.02248378923305e+001dB,9.81336720497864e+001°)
1.23026877081238e+000	(-5.02044104097549e+001dB,9.81139175331188e+001°)
1.23310483322890e+000	(-5.01839848540440e+001dB,9.80942035246817e+001°)
1.23594743344451e+000	(-5.01635612167416e+001dB,9.80745299368002e+001°)
1.23879658653036e+000	(-5.01431394894279e+001dB,9.80548966819028e+001°)
1.24165230759241e+000	(-5.01227196637178e+001dB,9.80353036725209e+001°)
1.24451461177138e+000	(-5.01023017312623e+001dB,9.80157508212905e+001°)
1.24738351424294e+000	(-5.00818856837475e+001dB,9.79962380409514e+001°)
1.25025903021771e+000	(-5.00614715128938e+001dB,9.79767652443469e+001°)
1.25314117494141e+000	(-5.00410592104577e+001dB,9.79573323444259e+001°)
1.25602996369487e+000	(-5.00206487682297e+001dB,9.79379392542409e+001°)
1.25892541179416e+000	(-5.00002401780353e+001dB,9.79185858869501e+001°)
1.26182753459066e+000	(-4.99798334317341e+001dB,9.78992721558158e+001°)
1.26473634747115e+000	(-4.99594285212209e+001dB,9.78799979742070e+001°)
1.26765186585784e+000	(-4.99390254384242e+001dB,9.78607632555973e+001°)
1.27057410520854e+000	(-4.99186241753068e+001dB,9.78415679135662e+001°)
1.27350308101666e+000	(-4.98982247238659e+001dB,9.78224118617997e+001°)
1.27643880881134e+000	(-4.98778270761318e+001dB,9.78032950140890e+001°)
1.27938130415752e+000	(-4.98574312241693e+001dB,9.77842172843325e+001°)
1.28233058265602e+000	(-4.98370371600763e+001dB,9.77651785865348e+001°)
1.28528665994361e+000	(-4.98166448759849e+001dB,9.77461788348074e+001°)
1.28824955169313e+000	(-4.97962543640599e+001dB,9.77272179433687e+001°)
1.29121927361353e+000	(-4.97758656164995e+001dB,9.77082958265439e+001°)
1.29419584144998e+000	(-4.97554786255357e+001dB,9.76894123987664e+001°)
1.29717927098395e+000	(-4.97350933834326e+001dB,9.76705675745761e+001°)
1.30016957803328e+000	(-4.97147098824874e+001dB,9.76517612686209e+001°)
1.30316677845229e+000	(-4.96943281150301e+001dB,9.76329933956566e+001°)
1.30617088813183e+000	(-4.96739480734241e+001dB,9.76142638705475e+001°)
1.30918192299940e+000	(-4.96535697500638e+001dB,9.75955726082649e+001°)
1.31219989901920e+000	(-4.96331931373775e+001dB,9.75769195238899e+001°)
1.31522483219223e+000	(-4.96128182278244e+001dB,9.75583045326104e+001°)
1.31825673855640e+000	(-4.95924450138969e+001dB,9.75397275497247e+001°)
1.32129563418657e+000	(-4.95720734881185e+001dB,9.75211884906382e+001°)
1.32434153519466e+000	(-4.95517036430456e+001dB,9.75026872708670e+001°)
1.32739445772973e+000	(-4.95313354712653e+001dB,9.74842238060349e+001°)
1.33045441797808e+000	(-4.95109689653971e+001dB,9.74657980118755e+001°)
1.33352143216332e+000	(-4.94906041180917e+001dB,9.74474098042320e+001°)
1.33659551654643e+000	(-4.94702409220312e+001dB,9.74290590990566e+001°)
1.33967668742593e+000	(-4.94498793699289e+001dB,9.74107458124115e+001°)
1.34276496113786e+000	(-4.94295194545295e+001dB,9.73924698604689e+001°)
1.34586035405594e+000	(-4.94091611686081e+001dB,9.73742311595100e+001°)
1.34896288259164e+000	(-4.93888045049717e+001dB,9.73560296259272e+001°)
1.35207256319427e+000	(-4.93684494564570e+001dB,9.73378651762221e+001°)
1.35518941235103e+000	(-4.93480960159323e+001dB,9.73197377270074e+001°)
1.35831344658715e+000	(-4.93277441762960e+001dB,9.73016471950058e+001°)
1.36144468246594e+000	(-4.93073939304767e+001dB,9.72835934970503e+001°)
1.36458313658892e+000	(-4.92870452714337e+001dB,9.72655765500848e+001°)
1.36772882559584e+000	(-4.92666981921565e+001dB,9.72475962711643e+001°)
1.37088176616484e+000	(-4.92463526856641e+001dB,9.72296525774535e+001°)
1.37404197501251e+000	(-4.92260087450064e+001dB,9.72117453862296e+001°)
1.37720946889394e+000	(-4.92056663632620e+001dB,9.71938746148791e+001°)
1.38038426460288e+000	(-4.91853255335403e+001dB,9.71760401809014e+001°)
1.38356637897177e+000	(-4.91649862489795e+001dB,9.71582420019058e+001°)
1.38675582887188e+000	(-4.91446485027478e+001dB,9.71404799956136e+001°)
1.38995263121334e+000	(-4.91243122880423e+001dB,9.71227540798574e+001°)
1.39315680294529e+000	(-4.91039775980899e+001dB,9.71050641725810e+001°)
1.39636836105593e+000	(-4.90836444261463e+001dB,9.70874101918403e+001°)
1.39958732257261e+000	(-4.90633127654960e+001dB,9.70697920558024e+001°)
1.40281370456195e+000	(-4.90429826094527e+001dB,9.70522096827462e+001°)
1.40604752412990e+000	(-4.90226539513591e+001dB,9.70346629910628e+001°)
1.40928879842186e+000	(-4.90023267845867e+001dB,9.70171518992553e+001°)
1.41253754462274e+000	(-4.89820011025343e+001dB,9.69996763259376e+001°)
1.41579377995707e+000	(-4.89616768986308e+001dB,9.69822361898370e+001°)
1.41905752168908e+000	(-4.89413541663325e+001dB,9.69648314097922e+001°)
1.42232878712281e+000	(-4.89210328991240e+001dB,9.69474619047542e+001°)
1.42560759360218e+000	(-4.89007130905183e+001dB,9.69301275937861e+001°)
1.42889395851109e+000	(-4.88803947340564e+001dB,9.69128283960638e+001°)
1.43218789927353e+000	(-4.88600778233067e+001dB,9.68955642308747e+001°)
1.43548943335364e+000	(-4.88397623518660e+001dB,9.68783350176194e+001°)
1.43879857825583e+000	(-4.88194483133588e+001dB,9.68611406758106e+001°)
1.44211535152486e+000	(-4.87991357014364e+001dB,9.68439811250731e+001°)
1.44543977074592e+000	(-4.87788245097781e+001dB,9.68268562851447e+001°)
1.44877185354475e+000	(-4.87585147320907e+001dB,9.68097660758757e+001°)
1.45211161758773e+000	(-4.87382063621079e+001dB,9.67927104172293e+001°)
1.45545908058195e+000	(-4.87178993935909e+001dB,9.67756892292809e+001°)
1.45881426027534e+000	(-4.86975938203272e+001dB,9.67587024322185e+001°)
1.46217717445671e+000	(-4.86772896361323e+001dB,9.67417499463436e+001°)
1.46554784095590e+000	(-4.86569868348477e+001dB,9.67248316920697e+001°)
1.46892627764385e+000	(-4.86366854103413e+001dB,9.67079475899231e+001°)
1.47231250243271e+000	(-4.86163853565086e+001dB,9.66910975605434e+001°)
1.47570653327588e+000	(-4.85960866672706e+001dB,9.66742815246825e+001°)
1.47910838816819e+000	(-4.85757893365760e+001dB,9.66574994032062e+001°)
1.48251808514594e+000	(-4.85554933583981e+001dB,9.66407511170919e+001°)
1.48593564228699e+000	(-4.85351987267376e+001dB,9.66240365874306e+001°)
1.48936107771090e+000	(-4.85149054356207e+001dB,9.66073557354261e+001°)
1.49279440957898e+000	(-4.84946134790999e+001dB,9.65907084823953e+001°)
1.49623565609442e+000	(-4.84743228512531e+001dB,9.65740947497677e+001°)
1.49968483550236e+000	(-4.84540335461843e+001dB,9.65575144590858e+001°)
1.50314196609001e+000	(-4.84337455580233e+001dB,9.65409675320057e+001°)
1.50660706618673e+000	(-4.84134588809252e+001dB,9.65244538902959e+001°)
1.51008015416413e+000	(-4.83931735090704e+001dB,9.65079734558379e+001°)
1.51356124843619e+000	(-4.83728894366647e+001dB,9.64915261506261e+001°)
1.51705036745932e+000	(-4.83526066579395e+001dB,9.64751118967683e+001°)
1.52054752973248e+000	(-4.83323251671510e+001dB,9.64587306164851e+001°)
1.52405275379728e+000	(-4.83120449585804e+001dB,9.64423822321098e+001°)
1.52756605823806e+000	(-4.82917660265340e+001dB,9.64260666660891e+001°)
1.53108746168202e+000	(-4.82714883653430e+001dB,9.64097838409823e+001°)
1.53461698279928e+000	(-4.82512119693630e+001dB,9.63935336794618e+001°)
1.53815464030302e+000	(-4.82309368329745e+001dB,9.63773161043129e+001°)
1.54170045294954e+000	(-4.82106629505826e+001dB,9.63611310384342e+001°)
1.54525443953840e+000	(-4.81903903166165e+001dB,9.63449784048366e+001°)
1.54881661891247e+000	(-4.81701189255305e+001dB,9.63288581266445e+001°)
1.55238700995807e+000	(-4.81498487718018e+001dB,9.63127701270945e+001°)
1.55596563160506e+000	(-4.81295798499330e+001dB,9.62967143295365e+001°)
1.55955250282694e+000	(-4.81093121544501e+001dB,9.62806906574333e+001°)
1.56314764264094e+000	(-4.80890456799033e+001dB,9.62646990343602e+001°)
1.56675107010813e+000	(-4.80687804208667e+001dB,9.62487393840058e+001°)
1.57036280433354e+000	(-4.80485163719377e+001dB,9.62328116301706e+001°)
1.57398286446620e+000	(-4.80282535277378e+001dB,9.62169156967685e+001°)
1.57761126969933e+000	(-4.80079918829118e+001dB,9.62010515078259e+001°)
1.58124803927037e+000	(-4.79877314321283e+001dB,9.61852189874819e+001°)
1.58489319246110e+000	(-4.79674721700789e+001dB,9.61694180599880e+001°)
1.58854674859776e+000	(-4.79472140914786e+001dB,9.61536486497088e+001°)
1.59220872705115e+000	(-4.79269571910655e+001dB,9.61379106811205e+001°)
1.59587914723672e+000	(-4.79067014636011e+001dB,9.61222040788129e+001°)
1.59955802861465e+000	(-4.78864469038697e+001dB,9.61065287674877e+001°)
1.60324539069002e+000	(-4.78661935066781e+001dB,9.60908846719588e+001°)
1.60694125301286e+000	(-4.78459412668565e+001dB,9.60752717171530e+001°)
1.61064563517825e+000	(-4.78256901792575e+001dB,9.60596898281089e+001°)
1.61435855682647e+000	(-4.78054402387562e+001dB,9.60441389299775e+001°)
1.61808003764305e+000	(-4.77851914402507e+001dB,9.60286189480226e+001°)
1.62181009735891e+000	(-4.77649437786612e+001dB,9.60131298076195e+001°)
1.62554875575047e+000	(-4.77446972489299e+001dB,9.59976714342557e+001°)
1.62929603263970e+000	(-4.77244518460221e+001dB,9.59822437535311e+001°)
1.63305194789432e+000	(-4.77042075649243e+001dB,9.59668466911569e+001°)
1.63681652142779e+000	(-4.76839644006459e+001dB,9.59514801729572e+001°)
1.64058977319952e+000	(-4.76637223482177e+001dB,9.59361441248674e+001°)
1.64437172321491e+000	(-4.76434814026925e+001dB,9.59208384729345e+001°)
1.64816239152549e+000	(-4.76232415591452e+001dB,9.59055631433179e+001°)
1.65196179822900e+000	(-4.76030028126721e+001dB,9.58903180622884e+001°)
1.65576996346951e+000	(-4.75827651583914e+001dB,9.58751031562282e+001°)
1.65958690743754e+000	(-4.75625285914420e+001dB,9.58599183516310e+001°)
1.66341265037015e+000	(-4.75422931069855e+001dB,9.58447635751028e+001°)
1.66724721255104e+000	(-4.75220587002043e+001dB,9.58296387533601e+001°)
1.67109061431069e+000	(-4.75018253663013e+001dB,9.58145438132310e+001°)
1.67494287602642e+000	(-4.74815931005019e+001dB,9.57994786816552e+001°)
1.67880401812254e+000	(-4.74613618980516e+001dB,9.57844432856832e+001°)
1.68267406107045e+000	(-4.74411317542174e+001dB,9.57694375524767e+001°)
1.68655302538872e+000	(-4.74209026642870e+001dB,9.57544614093086e+001°)
1.69044093164324e+000	(-4.74006746235691e+001dB,9.57395147835627e+001°)
1.69433780044731e+000	(-4.73804476273928e+001dB,9.57245976027335e+001°)
1.69824365246172e+000	(-4.73602216711086e+001dB,9.57097097944267e+001°)
1.70215850839493e+000	(-4.73399967500863e+001dB,9.56948512863580e+001°)
1.70608238900310e+000	(-4.73197728597174e+001dB,9.56800220063546e+001°)
1.71001531509027e+000	(-4.72995499954135e+001dB,9.56652218823537e+001°)
1.71395730750840e+000	(-4.72793281526063e+001dB,9.56504508424031e+001°)
1.71790838715757e+000	(-4.72591073267474e+001dB,9.56357088146607e+001°)
1.72186857498599e+000	(-4.72388875133094e+001dB,9.56209957273952e+001°)
1.72583789199018e+000	(-4.72186687077845e+001dB,9.56063115089851e+001°)
1.72981635921508e+000	(-4.71984509056848e+001dB,9.55916560879192e+001°)
1.73380399775412e+000	(-4.71782341025424e+001dB,9.55770293927960e+001°)
1.73780082874935e+000	(-4.71580182939090e+001dB,9.55624313523240e+001°)
1.74180687339159e+000	(-4.71378034753569e+001dB,9.55478618953221e+001°)
1.74582215292048e+000	(-4.71175896424765e+001dB,9.55333209507177e+001°)
1.74984668862464e+000	(-4.70973767908799e+001dB,9.55188084475492e+001°)
1.75388050184174e+000	(-4.70771649161965e+001dB,9.55043243149633e+001°)
1.75792361395867e+000	(-4.70569540140765e+001dB,9.54898684822170e+001°)
1.76197604641161e+000	(-4.70367440801889e+001dB,9.54754408786759e+001°)
1.76603782068614e+000	(-4.70165351102224e+001dB,9.54610414338154e+001°)
1.77010895831740e+000	(-4.69963270998842e+001dB,9.54466700772196e+001°)
1.77418948089014e+000	(-4.69761200449011e+001dB,9.54323267385818e+001°)
1.77827941003890e+000	(-4.69559139410187e+001dB,9.54180113477039e+001°)
1.78237876744807e+000	(-4.69357087840019e+001dB,9.54037238344971e+001°)
1.78648757485203e+000	(-4.69155045696335e+001dB,9.53894641289805e+001°)
1.79060585403527e+000	(-4.68953012937163e+001dB,9.53752321612825e+001°)
1.79473362683250e+000	(-4.68750989520713e+001dB,9.53610278616398e+001°)
1.79887091512876e+000	(-4.68548975405376e+001dB,9.53468511603970e+001°)
1.80301774085955e+000	(-4.68346970549735e+001dB,9.53327019880070e+001°)
1.80717412601090e+000	(-4.68144974912557e+001dB,9.53185802750315e+001°)
1.81134009261958e+000	(-4.67942988452789e+001dB,9.53044859521392e+001°)
1.81551566277311e+000	(-4.67741011129563e+001dB,9.52904189501072e+001°)
1.81970085860996e+000	(-4.67539042902200e+001dB,9.52763791998207e+001°)
1.82389570231961e+000	(-4.67337083730190e+001dB,9.52623666322716e+001°)
1.82810021614272e+000	(-4.67135133573211e+001dB,9.52483811785599e+001°)
1.83231442237119e+000	(-4.66933192391123e+001dB,9.52344227698930e+001°)
1.83653834334832e+000	(-4.66731260143961e+001dB,9.52204913375856e+001°)
1.84077200146893e+000	(-4.66529336791941e+001dB,9.52065868130591e+001°)
1.84501541917945e+000	(-4.66327422295458e+001dB,9.51927091278427e+001°)
1.84926861897805e+000	(-4.66125516615080e+001dB,9.51788582135715e+001°)
1.85353162341479e+000	(-4.65923619711555e+001dB,9.51650340019883e+001°)
1.85780445509167e+000	(-4.65721731545804e+001dB,9.51512364249418e+001°)
1.86208713666284e+000	(-4.65519852078924e+001dB,9.51374654143877e+001°)
1.86637969083464e+000	(-4.65317981272188e+001dB,9.51237209023879e+001°)
1.87068214036577e+000	(-4.65116119087040e+001dB,9.51100028211106e+001°)
1.87499450806739e+000	(-4.64914265485097e+001dB,9.50963111028301e+001°)
1.87931681680324e+000	(-4.64712420428150e+001dB,9.50826456799266e+001°)
1.88364908948977e+000	(-4.64510583878159e+001dB,9.50690064848863e+001°)
1.88799134909627e+000	(-4.64308755797253e+001dB,9.50553934503010e+001°)
